! jPCBSim: Simulation Results For /home/radioactive/opt/Projects//bpf_915 Project.
! Warning: S12 and S22 are actually just S21 and S11.  This is only true if your device is port-to-port symetrical!
! Frequency       S11                S21                S12                S22
# MHz  S  RI R  50
0.000   -1.006   0.000   -0.011   0.000   -0.011   0.000   -1.006   0.000
1.221   -1.006   -0.002   -0.011   -0.001   -0.011   -0.001   -1.006   -0.002
2.441   -1.006   -0.004   -0.011   -0.001   -0.011   -0.001   -1.006   -0.004
3.662   -1.006   -0.006   -0.011   -0.002   -0.011   -0.002   -1.006   -0.006
4.883   -1.006   -0.007   -0.011   -0.003   -0.011   -0.003   -1.006   -0.007
6.104   -1.006   -0.009   -0.011   -0.004   -0.011   -0.004   -1.006   -0.009
7.324   -1.005   -0.011   -0.011   -0.004   -0.011   -0.004   -1.005   -0.011
8.545   -1.005   -0.013   -0.010   -0.005   -0.010   -0.005   -1.005   -0.013
9.766   -1.005   -0.015   -0.010   -0.006   -0.010   -0.006   -1.005   -0.015
10.986   -1.005   -0.017   -0.010   -0.006   -0.010   -0.006   -1.005   -0.017
12.207   -1.005   -0.018   -0.009   -0.007   -0.009   -0.007   -1.005   -0.018
13.428   -1.004   -0.020   -0.009   -0.007   -0.009   -0.007   -1.004   -0.020
14.648   -1.004   -0.022   -0.008   -0.008   -0.008   -0.008   -1.004   -0.022
15.869   -1.004   -0.024   -0.008   -0.008   -0.008   -0.008   -1.004   -0.024
17.090   -1.004   -0.026   -0.007   -0.009   -0.007   -0.009   -1.004   -0.026
18.311   -1.003   -0.027   -0.007   -0.009   -0.007   -0.009   -1.003   -0.027
19.531   -1.003   -0.029   -0.006   -0.010   -0.006   -0.010   -1.003   -0.029
20.752   -1.003   -0.031   -0.006   -0.010   -0.006   -0.010   -1.003   -0.031
21.973   -1.002   -0.032   -0.005   -0.010   -0.005   -0.010   -1.002   -0.032
23.193   -1.002   -0.034   -0.004   -0.011   -0.004   -0.011   -1.002   -0.034
24.414   -1.002   -0.036   -0.004   -0.011   -0.004   -0.011   -1.002   -0.036
25.635   -1.001   -0.037   -0.003   -0.011   -0.003   -0.011   -1.001   -0.037
26.855   -1.001   -0.039   -0.002   -0.011   -0.002   -0.011   -1.001   -0.039
28.076   -1.000   -0.041   -0.002   -0.012   -0.002   -0.012   -1.000   -0.041
29.297   -1.000   -0.042   -0.001   -0.012   -0.001   -0.012   -1.000   -0.042
30.518   -1.000   -0.044   -0.000   -0.012   -0.000   -0.012   -1.000   -0.044
31.738   -0.999   -0.045   0.000   -0.012   0.000   -0.012   -0.999   -0.045
32.959   -0.999   -0.047   0.001   -0.012   0.001   -0.012   -0.999   -0.047
34.180   -0.998   -0.048   0.002   -0.012   0.002   -0.012   -0.998   -0.048
35.400   -0.998   -0.050   0.003   -0.012   0.003   -0.012   -0.998   -0.050
36.621   -0.997   -0.051   0.003   -0.011   0.003   -0.011   -0.997   -0.051
37.842   -0.997   -0.052   0.004   -0.011   0.004   -0.011   -0.997   -0.052
39.063   -0.997   -0.054   0.005   -0.011   0.005   -0.011   -0.997   -0.054
40.283   -0.996   -0.055   0.005   -0.011   0.005   -0.011   -0.996   -0.055
41.504   -0.996   -0.057   0.006   -0.010   0.006   -0.010   -0.996   -0.057
42.725   -0.995   -0.058   0.006   -0.010   0.006   -0.010   -0.995   -0.058
43.945   -0.995   -0.059   0.007   -0.010   0.007   -0.010   -0.995   -0.059
45.166   -0.995   -0.060   0.008   -0.009   0.008   -0.009   -0.995   -0.060
46.387   -0.994   -0.062   0.008   -0.009   0.008   -0.009   -0.994   -0.062
47.607   -0.994   -0.063   0.009   -0.008   0.009   -0.008   -0.994   -0.063
48.828   -0.994   -0.064   0.009   -0.008   0.009   -0.008   -0.994   -0.064
50.049   -0.993   -0.065   0.009   -0.007   0.009   -0.007   -0.993   -0.065
51.270   -0.993   -0.067   0.010   -0.007   0.010   -0.007   -0.993   -0.067
52.490   -0.993   -0.068   0.010   -0.006   0.010   -0.006   -0.993   -0.068
53.711   -0.992   -0.069   0.011   -0.005   0.011   -0.005   -0.992   -0.069
54.932   -0.992   -0.070   0.011   -0.005   0.011   -0.005   -0.992   -0.070
56.152   -0.992   -0.071   0.011   -0.004   0.011   -0.004   -0.992   -0.071
57.373   -0.992   -0.073   0.011   -0.003   0.011   -0.003   -0.992   -0.073
58.594   -0.991   -0.074   0.011   -0.003   0.011   -0.003   -0.991   -0.074
59.814   -0.991   -0.075   0.012   -0.002   0.012   -0.002   -0.991   -0.075
61.035   -0.991   -0.076   0.012   -0.001   0.012   -0.001   -0.991   -0.076
62.256   -0.991   -0.077   0.012   -0.001   0.012   -0.001   -0.991   -0.077
63.477   -0.991   -0.078   0.012   0.000   0.012   0.000   -0.991   -0.078
64.697   -0.991   -0.079   0.012   0.001   0.012   0.001   -0.991   -0.079
65.918   -0.991   -0.081   0.011   0.002   0.011   0.002   -0.991   -0.081
67.139   -0.990   -0.082   0.011   0.002   0.011   0.002   -0.990   -0.082
68.359   -0.990   -0.083   0.011   0.003   0.011   0.003   -0.990   -0.083
69.580   -0.990   -0.084   0.011   0.004   0.011   0.004   -0.990   -0.084
70.801   -0.990   -0.085   0.011   0.004   0.011   0.004   -0.990   -0.085
72.021   -0.990   -0.086   0.010   0.005   0.010   0.005   -0.990   -0.086
73.242   -0.990   -0.088   0.010   0.005   0.010   0.005   -0.990   -0.088
74.463   -0.990   -0.089   0.009   0.006   0.009   0.006   -0.990   -0.089
75.684   -0.990   -0.090   0.009   0.007   0.009   0.007   -0.990   -0.090
76.904   -0.991   -0.091   0.009   0.007   0.009   0.007   -0.991   -0.091
78.125   -0.991   -0.092   0.008   0.008   0.008   0.008   -0.991   -0.092
79.346   -0.991   -0.094   0.008   0.008   0.008   0.008   -0.991   -0.094
80.566   -0.991   -0.095   0.007   0.008   0.007   0.008   -0.991   -0.095
81.787   -0.991   -0.096   0.006   0.009   0.006   0.009   -0.991   -0.096
83.008   -0.991   -0.097   0.006   0.009   0.006   0.009   -0.991   -0.097
84.229   -0.991   -0.099   0.005   0.010   0.005   0.010   -0.991   -0.099
85.449   -0.991   -0.100   0.004   0.010   0.004   0.010   -0.991   -0.100
86.670   -0.992   -0.101   0.004   0.010   0.004   0.010   -0.992   -0.101
87.891   -0.992   -0.103   0.003   0.010   0.003   0.010   -0.992   -0.103
89.111   -0.992   -0.104   0.002   0.010   0.002   0.010   -0.992   -0.104
90.332   -0.992   -0.106   0.002   0.011   0.002   0.011   -0.992   -0.106
91.553   -0.992   -0.107   0.001   0.011   0.001   0.011   -0.992   -0.107
92.773   -0.992   -0.108   0.000   0.011   0.000   0.011   -0.992   -0.108
93.994   -0.993   -0.110   -0.000   0.011   -0.000   0.011   -0.993   -0.110
95.215   -0.993   -0.111   -0.001   0.011   -0.001   0.011   -0.993   -0.111
96.436   -0.993   -0.113   -0.002   0.010   -0.002   0.010   -0.993   -0.113
97.656   -0.993   -0.114   -0.003   0.010   -0.003   0.010   -0.993   -0.114
98.877   -0.993   -0.116   -0.003   0.010   -0.003   0.010   -0.993   -0.116
100.098   -0.994   -0.118   -0.004   0.010   -0.004   0.010   -0.994   -0.118
101.318   -0.994   -0.119   -0.005   0.010   -0.005   0.010   -0.994   -0.119
102.539   -0.994   -0.121   -0.005   0.009   -0.005   0.009   -0.994   -0.121
103.760   -0.994   -0.122   -0.006   0.009   -0.006   0.009   -0.994   -0.122
104.980   -0.994   -0.124   -0.006   0.008   -0.006   0.008   -0.994   -0.124
106.201   -0.994   -0.126   -0.007   0.008   -0.007   0.008   -0.994   -0.126
107.422   -0.994   -0.128   -0.008   0.008   -0.008   0.008   -0.994   -0.128
108.643   -0.995   -0.129   -0.008   0.007   -0.008   0.007   -0.995   -0.129
109.863   -0.995   -0.131   -0.009   0.006   -0.009   0.006   -0.995   -0.131
111.084   -0.995   -0.133   -0.009   0.006   -0.009   0.006   -0.995   -0.133
112.305   -0.995   -0.135   -0.010   0.005   -0.010   0.005   -0.995   -0.135
113.525   -0.995   -0.136   -0.010   0.005   -0.010   0.005   -0.995   -0.136
114.746   -0.995   -0.138   -0.010   0.004   -0.010   0.004   -0.995   -0.138
115.967   -0.995   -0.140   -0.011   0.003   -0.011   0.003   -0.995   -0.140
117.188   -0.995   -0.142   -0.011   0.003   -0.011   0.003   -0.995   -0.142
118.408   -0.995   -0.144   -0.011   0.002   -0.011   0.002   -0.995   -0.144
119.629   -0.995   -0.146   -0.011   0.001   -0.011   0.001   -0.995   -0.146
120.850   -0.994   -0.147   -0.011   0.001   -0.011   0.001   -0.994   -0.147
122.070   -0.994   -0.149   -0.011   -0.000   -0.011   -0.000   -0.994   -0.149
123.291   -0.994   -0.151   -0.012   -0.001   -0.012   -0.001   -0.994   -0.151
124.512   -0.994   -0.153   -0.012   -0.002   -0.012   -0.002   -0.994   -0.153
125.732   -0.994   -0.155   -0.011   -0.002   -0.011   -0.002   -0.994   -0.155
126.953   -0.994   -0.157   -0.011   -0.003   -0.011   -0.003   -0.994   -0.157
128.174   -0.993   -0.159   -0.011   -0.004   -0.011   -0.004   -0.993   -0.159
129.395   -0.993   -0.161   -0.011   -0.005   -0.011   -0.005   -0.993   -0.161
130.615   -0.993   -0.162   -0.011   -0.005   -0.011   -0.005   -0.993   -0.162
131.836   -0.992   -0.164   -0.011   -0.006   -0.011   -0.006   -0.992   -0.164
133.057   -0.992   -0.166   -0.010   -0.007   -0.010   -0.007   -0.992   -0.166
134.277   -0.992   -0.168   -0.010   -0.007   -0.010   -0.007   -0.992   -0.168
135.498   -0.991   -0.170   -0.010   -0.008   -0.010   -0.008   -0.991   -0.170
136.719   -0.991   -0.172   -0.009   -0.009   -0.009   -0.009   -0.991   -0.172
137.939   -0.990   -0.174   -0.009   -0.009   -0.009   -0.009   -0.990   -0.174
139.160   -0.990   -0.175   -0.008   -0.010   -0.008   -0.010   -0.990   -0.175
140.381   -0.989   -0.177   -0.008   -0.010   -0.008   -0.010   -0.989   -0.177
141.602   -0.989   -0.179   -0.007   -0.011   -0.007   -0.011   -0.989   -0.179
142.822   -0.988   -0.181   -0.007   -0.011   -0.007   -0.011   -0.988   -0.181
144.043   -0.988   -0.183   -0.006   -0.012   -0.006   -0.012   -0.988   -0.183
145.264   -0.987   -0.184   -0.005   -0.012   -0.005   -0.012   -0.987   -0.184
146.484   -0.987   -0.186   -0.005   -0.012   -0.005   -0.012   -0.987   -0.186
147.705   -0.986   -0.188   -0.004   -0.013   -0.004   -0.013   -0.986   -0.188
148.926   -0.985   -0.190   -0.003   -0.013   -0.003   -0.013   -0.985   -0.190
150.146   -0.985   -0.191   -0.003   -0.013   -0.003   -0.013   -0.985   -0.191
151.367   -0.984   -0.193   -0.002   -0.013   -0.002   -0.013   -0.984   -0.193
152.588   -0.984   -0.195   -0.001   -0.013   -0.001   -0.013   -0.984   -0.195
153.809   -0.983   -0.196   -0.000   -0.014   -0.000   -0.014   -0.983   -0.196
155.029   -0.982   -0.198   0.000   -0.014   0.000   -0.014   -0.982   -0.198
156.250   -0.982   -0.199   0.001   -0.014   0.001   -0.014   -0.982   -0.199
157.471   -0.981   -0.201   0.002   -0.014   0.002   -0.014   -0.981   -0.201
158.691   -0.980   -0.202   0.003   -0.013   0.003   -0.013   -0.980   -0.202
159.912   -0.979   -0.204   0.003   -0.013   0.003   -0.013   -0.979   -0.204
161.133   -0.979   -0.205   0.004   -0.013   0.004   -0.013   -0.979   -0.205
162.354   -0.978   -0.207   0.005   -0.013   0.005   -0.013   -0.978   -0.207
163.574   -0.977   -0.208   0.005   -0.013   0.005   -0.013   -0.977   -0.208
164.795   -0.977   -0.210   0.006   -0.012   0.006   -0.012   -0.977   -0.210
166.016   -0.976   -0.211   0.007   -0.012   0.007   -0.012   -0.976   -0.211
167.236   -0.975   -0.213   0.007   -0.012   0.007   -0.012   -0.975   -0.213
168.457   -0.975   -0.214   0.008   -0.011   0.008   -0.011   -0.975   -0.214
169.678   -0.974   -0.215   0.008   -0.011   0.008   -0.011   -0.974   -0.215
170.898   -0.973   -0.217   0.009   -0.010   0.009   -0.010   -0.973   -0.217
172.119   -0.973   -0.218   0.010   -0.010   0.010   -0.010   -0.973   -0.218
173.340   -0.972   -0.219   0.010   -0.009   0.010   -0.009   -0.972   -0.219
174.561   -0.971   -0.220   0.010   -0.009   0.010   -0.009   -0.971   -0.220
175.781   -0.971   -0.222   0.011   -0.008   0.011   -0.008   -0.971   -0.222
177.002   -0.970   -0.223   0.011   -0.007   0.011   -0.007   -0.970   -0.223
178.223   -0.970   -0.224   0.012   -0.007   0.012   -0.007   -0.970   -0.224
179.443   -0.969   -0.225   0.012   -0.006   0.012   -0.006   -0.969   -0.225
180.664   -0.969   -0.226   0.012   -0.005   0.012   -0.005   -0.969   -0.226
181.885   -0.968   -0.228   0.012   -0.005   0.012   -0.005   -0.968   -0.228
183.105   -0.968   -0.229   0.012   -0.004   0.012   -0.004   -0.968   -0.229
184.326   -0.967   -0.230   0.012   -0.003   0.012   -0.003   -0.967   -0.230
185.547   -0.967   -0.231   0.013   -0.002   0.013   -0.002   -0.967   -0.231
186.768   -0.966   -0.232   0.013   -0.002   0.013   -0.002   -0.966   -0.232
187.988   -0.966   -0.233   0.012   -0.001   0.012   -0.001   -0.966   -0.233
189.209   -0.965   -0.234   0.012   -0.000   0.012   -0.000   -0.965   -0.234
190.430   -0.965   -0.236   0.012   0.001   0.012   0.001   -0.965   -0.236
191.650   -0.965   -0.237   0.012   0.001   0.012   0.001   -0.965   -0.237
192.871   -0.964   -0.238   0.012   0.002   0.012   0.002   -0.964   -0.238
194.092   -0.964   -0.239   0.012   0.003   0.012   0.003   -0.964   -0.239
195.313   -0.964   -0.240   0.011   0.003   0.011   0.003   -0.964   -0.240
196.533   -0.963   -0.241   0.011   0.004   0.011   0.004   -0.963   -0.241
197.754   -0.963   -0.242   0.011   0.005   0.011   0.005   -0.963   -0.242
198.975   -0.963   -0.244   0.010   0.005   0.010   0.005   -0.963   -0.244
200.195   -0.963   -0.245   0.010   0.006   0.010   0.006   -0.963   -0.245
201.416   -0.962   -0.246   0.009   0.006   0.009   0.006   -0.962   -0.246
202.637   -0.962   -0.247   0.009   0.007   0.009   0.007   -0.962   -0.247
203.857   -0.962   -0.248   0.008   0.007   0.008   0.007   -0.962   -0.248
205.078   -0.962   -0.250   0.008   0.008   0.008   0.008   -0.962   -0.250
206.299   -0.962   -0.251   0.007   0.008   0.007   0.008   -0.962   -0.251
207.520   -0.962   -0.252   0.006   0.008   0.006   0.008   -0.962   -0.252
208.740   -0.961   -0.253   0.006   0.009   0.006   0.009   -0.961   -0.253
209.961   -0.961   -0.255   0.005   0.009   0.005   0.009   -0.961   -0.255
211.182   -0.961   -0.256   0.004   0.009   0.004   0.009   -0.961   -0.256
212.402   -0.961   -0.257   0.003   0.009   0.003   0.009   -0.961   -0.257
213.623   -0.961   -0.259   0.003   0.010   0.003   0.010   -0.961   -0.259
214.844   -0.961   -0.260   0.002   0.010   0.002   0.010   -0.961   -0.260
216.064   -0.961   -0.261   0.001   0.010   0.001   0.010   -0.961   -0.261
217.285   -0.961   -0.263   0.001   0.010   0.001   0.010   -0.961   -0.263
218.506   -0.961   -0.264   -0.000   0.010   -0.000   0.010   -0.961   -0.264
219.727   -0.961   -0.266   -0.001   0.010   -0.001   0.010   -0.961   -0.266
220.947   -0.961   -0.267   -0.002   0.009   -0.002   0.009   -0.961   -0.267
222.168   -0.961   -0.269   -0.002   0.009   -0.002   0.009   -0.961   -0.269
223.389   -0.961   -0.270   -0.003   0.009   -0.003   0.009   -0.961   -0.270
224.609   -0.961   -0.272   -0.004   0.009   -0.004   0.009   -0.961   -0.272
225.830   -0.961   -0.273   -0.005   0.008   -0.005   0.008   -0.961   -0.273
227.051   -0.961   -0.275   -0.005   0.008   -0.005   0.008   -0.961   -0.275
228.271   -0.960   -0.277   -0.006   0.008   -0.006   0.008   -0.960   -0.277
229.492   -0.960   -0.278   -0.007   0.007   -0.007   0.007   -0.960   -0.278
230.713   -0.960   -0.280   -0.007   0.007   -0.007   0.007   -0.960   -0.280
231.934   -0.960   -0.282   -0.008   0.006   -0.008   0.006   -0.960   -0.282
233.154   -0.960   -0.284   -0.008   0.006   -0.008   0.006   -0.960   -0.284
234.375   -0.960   -0.285   -0.009   0.005   -0.009   0.005   -0.960   -0.285
235.596   -0.960   -0.287   -0.009   0.004   -0.009   0.004   -0.960   -0.287
236.816   -0.960   -0.289   -0.010   0.004   -0.010   0.004   -0.960   -0.289
238.037   -0.959   -0.291   -0.010   0.003   -0.010   0.003   -0.959   -0.291
239.258   -0.959   -0.292   -0.010   0.002   -0.010   0.002   -0.959   -0.292
240.479   -0.959   -0.294   -0.011   0.002   -0.011   0.002   -0.959   -0.294
241.699   -0.959   -0.296   -0.011   0.001   -0.011   0.001   -0.959   -0.296
242.920   -0.958   -0.298   -0.011   0.000   -0.011   0.000   -0.958   -0.298
244.141   -0.958   -0.300   -0.011   -0.001   -0.011   -0.001   -0.958   -0.300
245.361   -0.958   -0.302   -0.011   -0.001   -0.011   -0.001   -0.958   -0.302
246.582   -0.957   -0.304   -0.011   -0.002   -0.011   -0.002   -0.957   -0.304
247.803   -0.957   -0.306   -0.011   -0.003   -0.011   -0.003   -0.957   -0.306
249.023   -0.957   -0.308   -0.011   -0.004   -0.011   -0.004   -0.957   -0.308
250.244   -0.956   -0.310   -0.011   -0.004   -0.011   -0.004   -0.956   -0.310
251.465   -0.956   -0.312   -0.011   -0.005   -0.011   -0.005   -0.956   -0.312
252.686   -0.955   -0.313   -0.011   -0.006   -0.011   -0.006   -0.955   -0.313
253.906   -0.955   -0.315   -0.011   -0.007   -0.011   -0.007   -0.955   -0.315
255.127   -0.954   -0.317   -0.011   -0.008   -0.011   -0.008   -0.954   -0.317
256.348   -0.954   -0.319   -0.010   -0.008   -0.010   -0.008   -0.954   -0.319
257.568   -0.953   -0.321   -0.010   -0.009   -0.010   -0.009   -0.953   -0.321
258.789   -0.953   -0.323   -0.010   -0.010   -0.010   -0.010   -0.953   -0.323
260.010   -0.952   -0.325   -0.009   -0.010   -0.009   -0.010   -0.952   -0.325
261.230   -0.951   -0.327   -0.009   -0.011   -0.009   -0.011   -0.951   -0.327
262.451   -0.951   -0.329   -0.008   -0.012   -0.008   -0.012   -0.951   -0.329
263.672   -0.950   -0.331   -0.008   -0.012   -0.008   -0.012   -0.950   -0.331
264.893   -0.949   -0.333   -0.007   -0.013   -0.007   -0.013   -0.949   -0.333
266.113   -0.948   -0.335   -0.006   -0.013   -0.006   -0.013   -0.948   -0.335
267.334   -0.947   -0.337   -0.006   -0.014   -0.006   -0.014   -0.947   -0.337
268.555   -0.947   -0.338   -0.005   -0.014   -0.005   -0.014   -0.947   -0.338
269.775   -0.946   -0.340   -0.004   -0.015   -0.004   -0.015   -0.946   -0.340
270.996   -0.945   -0.342   -0.004   -0.015   -0.004   -0.015   -0.945   -0.342
272.217   -0.944   -0.344   -0.003   -0.015   -0.003   -0.015   -0.944   -0.344
273.438   -0.943   -0.346   -0.002   -0.016   -0.002   -0.016   -0.943   -0.346
274.658   -0.942   -0.348   -0.001   -0.016   -0.001   -0.016   -0.942   -0.348
275.879   -0.941   -0.349   -0.001   -0.016   -0.001   -0.016   -0.941   -0.349
277.100   -0.940   -0.351   0.000   -0.016   0.000   -0.016   -0.940   -0.351
278.320   -0.939   -0.353   0.001   -0.016   0.001   -0.016   -0.939   -0.353
279.541   -0.938   -0.354   0.002   -0.016   0.002   -0.016   -0.938   -0.354
280.762   -0.937   -0.356   0.003   -0.016   0.003   -0.016   -0.937   -0.356
281.982   -0.936   -0.358   0.003   -0.016   0.003   -0.016   -0.936   -0.358
283.203   -0.935   -0.359   0.004   -0.016   0.004   -0.016   -0.935   -0.359
284.424   -0.934   -0.361   0.005   -0.016   0.005   -0.016   -0.934   -0.361
285.645   -0.933   -0.362   0.006   -0.016   0.006   -0.016   -0.933   -0.362
286.865   -0.932   -0.364   0.006   -0.015   0.006   -0.015   -0.932   -0.364
288.086   -0.931   -0.366   0.007   -0.015   0.007   -0.015   -0.931   -0.366
289.307   -0.930   -0.367   0.008   -0.015   0.008   -0.015   -0.930   -0.367
290.527   -0.929   -0.368   0.009   -0.014   0.009   -0.014   -0.929   -0.368
291.748   -0.928   -0.370   0.009   -0.014   0.009   -0.014   -0.928   -0.370
292.969   -0.927   -0.371   0.010   -0.013   0.010   -0.013   -0.927   -0.371
294.189   -0.926   -0.373   0.011   -0.013   0.011   -0.013   -0.926   -0.373
295.410   -0.925   -0.374   0.011   -0.012   0.011   -0.012   -0.925   -0.374
296.631   -0.924   -0.375   0.012   -0.012   0.012   -0.012   -0.924   -0.375
297.852   -0.923   -0.377   0.012   -0.011   0.012   -0.011   -0.923   -0.377
299.072   -0.922   -0.378   0.013   -0.010   0.013   -0.010   -0.922   -0.378
300.293   -0.921   -0.379   0.013   -0.010   0.013   -0.010   -0.921   -0.379
301.514   -0.920   -0.381   0.013   -0.009   0.013   -0.009   -0.920   -0.381
302.734   -0.919   -0.382   0.014   -0.008   0.014   -0.008   -0.919   -0.382
303.955   -0.918   -0.383   0.014   -0.008   0.014   -0.008   -0.918   -0.383
305.176   -0.917   -0.384   0.014   -0.007   0.014   -0.007   -0.917   -0.384
306.396   -0.917   -0.385   0.014   -0.006   0.014   -0.006   -0.917   -0.385
307.617   -0.916   -0.387   0.015   -0.005   0.015   -0.005   -0.916   -0.387
