! jPCBSim: Simulation Results For /home/radioactive/opt/Projects//lorentz_debye_fr4 Project.
! Warning: S12 and S22 are actually just S21 and S11.  This is only true if your device is port-to-port symetrical!
! Frequency       S11                S21                S12                S22
# MHz  S  RI R  50
0.000   -0.630   0.000   0.369   0.000   0.369   0.000   -0.630   0.000
0.305   -0.630   0.004   0.369   0.005   0.369   0.005   -0.630   0.004
0.610   -0.631   0.009   0.369   0.009   0.369   0.009   -0.631   0.009
0.916   -0.631   0.013   0.369   0.013   0.369   0.013   -0.631   0.013
1.221   -0.631   0.017   0.368   0.018   0.368   0.018   -0.631   0.017
1.526   -0.632   0.022   0.368   0.022   0.368   0.022   -0.632   0.022
1.831   -0.632   0.026   0.368   0.027   0.368   0.027   -0.632   0.026
2.136   -0.633   0.030   0.367   0.031   0.367   0.031   -0.633   0.030
2.441   -0.634   0.034   0.366   0.036   0.366   0.036   -0.634   0.034
2.747   -0.634   0.039   0.365   0.040   0.365   0.040   -0.634   0.039
3.052   -0.635   0.043   0.365   0.045   0.365   0.045   -0.635   0.043
3.357   -0.636   0.047   0.364   0.049   0.364   0.049   -0.636   0.047
3.662   -0.637   0.051   0.362   0.053   0.362   0.053   -0.637   0.051
3.967   -0.639   0.055   0.361   0.058   0.361   0.058   -0.639   0.055
4.272   -0.640   0.059   0.360   0.062   0.360   0.062   -0.640   0.059
4.578   -0.641   0.063   0.359   0.066   0.359   0.066   -0.641   0.063
4.883   -0.643   0.068   0.357   0.070   0.357   0.070   -0.643   0.068
5.188   -0.644   0.072   0.356   0.075   0.356   0.075   -0.644   0.072
5.493   -0.646   0.075   0.354   0.079   0.354   0.079   -0.646   0.075
5.798   -0.648   0.079   0.352   0.083   0.352   0.083   -0.648   0.079
6.104   -0.649   0.083   0.351   0.087   0.351   0.087   -0.649   0.083
6.409   -0.651   0.087   0.349   0.091   0.349   0.091   -0.651   0.087
6.714   -0.653   0.091   0.347   0.095   0.347   0.095   -0.653   0.091
7.019   -0.655   0.094   0.345   0.099   0.345   0.099   -0.655   0.094
7.324   -0.657   0.098   0.343   0.103   0.343   0.103   -0.657   0.098
7.629   -0.660   0.102   0.340   0.106   0.340   0.106   -0.660   0.102
7.935   -0.662   0.105   0.338   0.110   0.338   0.110   -0.662   0.105
8.240   -0.664   0.109   0.336   0.114   0.336   0.114   -0.664   0.109
8.545   -0.667   0.112   0.333   0.117   0.333   0.117   -0.667   0.112
8.850   -0.669   0.115   0.331   0.121   0.331   0.121   -0.669   0.115
9.155   -0.672   0.119   0.328   0.124   0.328   0.124   -0.672   0.119
9.460   -0.674   0.122   0.326   0.128   0.326   0.128   -0.674   0.122
9.766   -0.677   0.125   0.323   0.131   0.323   0.131   -0.677   0.125
10.071   -0.680   0.128   0.320   0.134   0.320   0.134   -0.680   0.128
10.376   -0.683   0.131   0.318   0.137   0.318   0.137   -0.683   0.131
10.681   -0.686   0.134   0.315   0.140   0.315   0.140   -0.686   0.134
10.986   -0.689   0.136   0.312   0.143   0.312   0.143   -0.689   0.136
11.292   -0.692   0.139   0.309   0.146   0.309   0.146   -0.692   0.139
11.597   -0.695   0.142   0.306   0.149   0.306   0.149   -0.695   0.142
11.902   -0.698   0.144   0.303   0.152   0.303   0.152   -0.698   0.144
12.207   -0.701   0.147   0.300   0.154   0.300   0.154   -0.701   0.147
12.512   -0.704   0.149   0.297   0.157   0.297   0.157   -0.704   0.149
12.817   -0.707   0.151   0.293   0.160   0.293   0.160   -0.707   0.151
13.123   -0.710   0.154   0.290   0.162   0.290   0.162   -0.710   0.154
13.428   -0.714   0.156   0.287   0.164   0.287   0.164   -0.714   0.156
13.733   -0.717   0.158   0.284   0.166   0.284   0.166   -0.717   0.158
14.038   -0.720   0.159   0.280   0.169   0.280   0.169   -0.720   0.159
14.343   -0.724   0.161   0.277   0.171   0.277   0.171   -0.724   0.161
14.648   -0.727   0.163   0.274   0.172   0.274   0.172   -0.727   0.163
14.954   -0.730   0.165   0.270   0.174   0.270   0.174   -0.730   0.165
15.259   -0.734   0.166   0.267   0.176   0.267   0.176   -0.734   0.166
15.564   -0.737   0.168   0.264   0.178   0.264   0.178   -0.737   0.168
15.869   -0.740   0.169   0.260   0.179   0.260   0.179   -0.740   0.169
16.174   -0.744   0.170   0.257   0.181   0.257   0.181   -0.744   0.170
16.479   -0.747   0.171   0.254   0.182   0.254   0.182   -0.747   0.171
16.785   -0.750   0.172   0.250   0.183   0.250   0.183   -0.750   0.172
17.090   -0.754   0.173   0.247   0.185   0.247   0.185   -0.754   0.173
17.395   -0.757   0.174   0.244   0.186   0.244   0.186   -0.757   0.174
17.700   -0.760   0.175   0.240   0.187   0.240   0.187   -0.760   0.175
18.005   -0.764   0.176   0.237   0.188   0.237   0.188   -0.764   0.176
18.311   -0.767   0.176   0.234   0.189   0.234   0.189   -0.767   0.176
18.616   -0.770   0.177   0.230   0.189   0.230   0.189   -0.770   0.177
18.921   -0.773   0.177   0.227   0.190   0.227   0.190   -0.773   0.177
19.226   -0.777   0.178   0.224   0.191   0.224   0.191   -0.777   0.178
19.531   -0.780   0.178   0.221   0.191   0.221   0.191   -0.780   0.178
19.836   -0.783   0.178   0.218   0.192   0.218   0.192   -0.783   0.178
20.142   -0.786   0.179   0.215   0.192   0.215   0.192   -0.786   0.179
20.447   -0.789   0.179   0.211   0.192   0.211   0.192   -0.789   0.179
20.752   -0.792   0.179   0.208   0.193   0.208   0.193   -0.792   0.179
21.057   -0.795   0.179   0.205   0.193   0.205   0.193   -0.795   0.179
21.362   -0.798   0.179   0.203   0.193   0.203   0.193   -0.798   0.179
21.667   -0.801   0.179   0.200   0.193   0.200   0.193   -0.801   0.179
21.973   -0.804   0.178   0.197   0.193   0.197   0.193   -0.804   0.178
22.278   -0.806   0.178   0.194   0.193   0.194   0.193   -0.806   0.178
22.583   -0.809   0.178   0.191   0.193   0.191   0.193   -0.809   0.178
22.888   -0.812   0.178   0.189   0.193   0.189   0.193   -0.812   0.178
23.193   -0.814   0.177   0.186   0.193   0.186   0.193   -0.814   0.177
23.499   -0.817   0.177   0.183   0.193   0.183   0.193   -0.817   0.177
23.804   -0.820   0.176   0.181   0.193   0.181   0.193   -0.820   0.176
24.109   -0.822   0.176   0.178   0.192   0.178   0.192   -0.822   0.176
24.414   -0.824   0.175   0.176   0.192   0.176   0.192   -0.824   0.175
24.719   -0.827   0.175   0.173   0.192   0.173   0.192   -0.827   0.175
25.024   -0.829   0.174   0.171   0.191   0.171   0.191   -0.829   0.174
25.330   -0.831   0.174   0.169   0.191   0.169   0.191   -0.831   0.174
25.635   -0.834   0.173   0.167   0.190   0.167   0.190   -0.834   0.173
25.940   -0.836   0.172   0.164   0.190   0.164   0.190   -0.836   0.172
26.245   -0.838   0.172   0.162   0.190   0.162   0.190   -0.838   0.172
26.550   -0.840   0.171   0.160   0.189   0.160   0.189   -0.840   0.171
26.855   -0.842   0.170   0.158   0.189   0.158   0.189   -0.842   0.170
27.161   -0.844   0.170   0.156   0.188   0.156   0.188   -0.844   0.170
27.466   -0.846   0.169   0.154   0.188   0.154   0.188   -0.846   0.169
27.771   -0.848   0.168   0.152   0.187   0.152   0.187   -0.848   0.168
28.076   -0.850   0.168   0.150   0.187   0.150   0.187   -0.850   0.168
28.381   -0.852   0.167   0.149   0.186   0.149   0.186   -0.852   0.167
28.687   -0.853   0.166   0.147   0.186   0.147   0.186   -0.853   0.166
28.992   -0.855   0.165   0.145   0.185   0.145   0.185   -0.855   0.165
29.297   -0.857   0.165   0.143   0.184   0.143   0.184   -0.857   0.165
29.602   -0.858   0.164   0.142   0.184   0.142   0.184   -0.858   0.164
29.907   -0.860   0.163   0.140   0.183   0.140   0.183   -0.860   0.163
30.212   -0.862   0.163   0.138   0.183   0.138   0.183   -0.862   0.163
30.518   -0.863   0.162   0.137   0.182   0.137   0.182   -0.863   0.162
30.823   -0.865   0.161   0.135   0.182   0.135   0.182   -0.865   0.161
31.128   -0.866   0.160   0.134   0.181   0.134   0.181   -0.866   0.160
31.433   -0.868   0.160   0.132   0.181   0.132   0.181   -0.868   0.160
31.738   -0.869   0.159   0.131   0.180   0.131   0.180   -0.869   0.159
32.043   -0.871   0.158   0.129   0.180   0.129   0.180   -0.871   0.158
32.349   -0.872   0.158   0.128   0.179   0.128   0.179   -0.872   0.158
32.654   -0.873   0.157   0.127   0.179   0.127   0.179   -0.873   0.157
32.959   -0.875   0.156   0.125   0.178   0.125   0.178   -0.875   0.156
33.264   -0.876   0.156   0.124   0.178   0.124   0.178   -0.876   0.156
33.569   -0.877   0.155   0.123   0.177   0.123   0.177   -0.877   0.155
33.875   -0.879   0.154   0.121   0.177   0.121   0.177   -0.879   0.154
34.180   -0.880   0.154   0.120   0.177   0.120   0.177   -0.880   0.154
34.485   -0.881   0.153   0.119   0.176   0.119   0.176   -0.881   0.153
34.790   -0.883   0.153   0.118   0.176   0.118   0.176   -0.883   0.153
35.095   -0.884   0.152   0.116   0.175   0.116   0.175   -0.884   0.152
35.400   -0.885   0.151   0.115   0.175   0.115   0.175   -0.885   0.151
35.706   -0.886   0.151   0.114   0.175   0.114   0.175   -0.886   0.151
36.011   -0.888   0.150   0.113   0.174   0.113   0.174   -0.888   0.150
36.316   -0.889   0.150   0.111   0.174   0.111   0.174   -0.889   0.150
36.621   -0.890   0.149   0.110   0.173   0.110   0.173   -0.890   0.149
36.926   -0.891   0.148   0.109   0.173   0.109   0.173   -0.891   0.148
37.231   -0.893   0.148   0.108   0.173   0.108   0.173   -0.893   0.148
37.537   -0.894   0.147   0.107   0.172   0.107   0.172   -0.894   0.147
37.842   -0.895   0.147   0.105   0.172   0.105   0.172   -0.895   0.147
38.147   -0.896   0.146   0.104   0.171   0.104   0.171   -0.896   0.146
38.452   -0.897   0.146   0.103   0.171   0.103   0.171   -0.897   0.146
38.757   -0.898   0.145   0.102   0.171   0.102   0.171   -0.898   0.145
39.063   -0.900   0.144   0.101   0.170   0.101   0.170   -0.900   0.144
39.368   -0.901   0.144   0.100   0.170   0.100   0.170   -0.901   0.144
39.673   -0.902   0.143   0.099   0.170   0.099   0.170   -0.902   0.143
39.978   -0.903   0.143   0.097   0.169   0.097   0.169   -0.903   0.143
40.283   -0.904   0.142   0.096   0.169   0.096   0.169   -0.904   0.142
40.588   -0.906   0.141   0.095   0.168   0.095   0.168   -0.906   0.141
40.894   -0.907   0.141   0.094   0.168   0.094   0.168   -0.907   0.141
41.199   -0.908   0.140   0.093   0.168   0.093   0.168   -0.908   0.140
41.504   -0.909   0.139   0.092   0.167   0.092   0.167   -0.909   0.139
41.809   -0.910   0.139   0.091   0.167   0.091   0.167   -0.910   0.139
42.114   -0.911   0.138   0.089   0.166   0.089   0.166   -0.911   0.138
42.419   -0.912   0.137   0.088   0.166   0.088   0.166   -0.912   0.137
42.725   -0.914   0.137   0.087   0.166   0.087   0.166   -0.914   0.137
43.030   -0.915   0.136   0.086   0.165   0.086   0.165   -0.915   0.136
43.335   -0.916   0.135   0.085   0.165   0.085   0.165   -0.916   0.135
43.640   -0.917   0.135   0.084   0.164   0.084   0.164   -0.917   0.135
43.945   -0.918   0.134   0.083   0.164   0.083   0.164   -0.918   0.134
44.250   -0.919   0.133   0.082   0.163   0.082   0.163   -0.919   0.133
44.556   -0.920   0.132   0.081   0.163   0.081   0.163   -0.920   0.132
44.861   -0.921   0.132   0.080   0.162   0.080   0.162   -0.921   0.132
45.166   -0.922   0.131   0.078   0.162   0.078   0.162   -0.922   0.131
45.471   -0.923   0.130   0.077   0.161   0.077   0.161   -0.923   0.130
45.776   -0.924   0.129   0.076   0.161   0.076   0.161   -0.924   0.129
46.082   -0.925   0.129   0.075   0.160   0.075   0.160   -0.925   0.129
46.387   -0.926   0.128   0.074   0.159   0.074   0.159   -0.926   0.128
46.692   -0.927   0.127   0.073   0.159   0.073   0.159   -0.927   0.127
46.997   -0.928   0.126   0.072   0.158   0.072   0.158   -0.928   0.126
47.302   -0.929   0.125   0.071   0.158   0.071   0.158   -0.929   0.125
47.607   -0.930   0.124   0.070   0.157   0.070   0.157   -0.930   0.124
47.913   -0.931   0.123   0.069   0.156   0.069   0.156   -0.931   0.123
48.218   -0.932   0.123   0.069   0.156   0.069   0.156   -0.932   0.123
48.523   -0.933   0.122   0.068   0.155   0.068   0.155   -0.933   0.122
48.828   -0.934   0.121   0.067   0.155   0.067   0.155   -0.934   0.121
49.133   -0.935   0.120   0.066   0.154   0.066   0.154   -0.935   0.120
49.438   -0.936   0.119   0.065   0.153   0.065   0.153   -0.936   0.119
49.744   -0.936   0.118   0.064   0.153   0.064   0.153   -0.936   0.118
50.049   -0.937   0.117   0.063   0.152   0.063   0.152   -0.937   0.117
50.354   -0.938   0.116   0.063   0.151   0.063   0.151   -0.938   0.116
50.659   -0.939   0.115   0.062   0.151   0.062   0.151   -0.939   0.115
50.964   -0.939   0.114   0.061   0.150   0.061   0.150   -0.939   0.114
51.270   -0.940   0.114   0.060   0.149   0.060   0.149   -0.940   0.114
51.575   -0.941   0.113   0.060   0.148   0.060   0.148   -0.941   0.113
51.880   -0.941   0.112   0.059   0.148   0.059   0.148   -0.941   0.112
52.185   -0.942   0.111   0.058   0.147   0.058   0.147   -0.942   0.111
52.490   -0.943   0.110   0.057   0.146   0.057   0.146   -0.943   0.110
52.795   -0.943   0.109   0.057   0.146   0.057   0.146   -0.943   0.109
53.101   -0.944   0.108   0.056   0.145   0.056   0.145   -0.944   0.108
53.406   -0.944   0.107   0.056   0.144   0.056   0.144   -0.944   0.107
53.711   -0.945   0.106   0.055   0.144   0.055   0.144   -0.945   0.106
54.016   -0.945   0.105   0.055   0.143   0.055   0.143   -0.945   0.105
54.321   -0.946   0.104   0.054   0.142   0.054   0.142   -0.946   0.104
54.626   -0.946   0.104   0.053   0.142   0.053   0.142   -0.946   0.104
54.932   -0.947   0.103   0.053   0.141   0.053   0.141   -0.947   0.103
55.237   -0.947   0.102   0.052   0.140   0.052   0.140   -0.947   0.102
55.542   -0.948   0.101   0.052   0.140   0.052   0.140   -0.948   0.101
55.847   -0.948   0.100   0.052   0.139   0.052   0.139   -0.948   0.100
56.152   -0.949   0.099   0.051   0.138   0.051   0.138   -0.949   0.099
56.458   -0.949   0.099   0.051   0.138   0.051   0.138   -0.949   0.099
56.763   -0.949   0.098   0.050   0.137   0.050   0.137   -0.949   0.098
57.068   -0.950   0.097   0.050   0.136   0.050   0.136   -0.950   0.097
57.373   -0.950   0.096   0.050   0.136   0.050   0.136   -0.950   0.096
57.678   -0.950   0.095   0.049   0.135   0.049   0.135   -0.950   0.095
57.983   -0.951   0.095   0.049   0.135   0.049   0.135   -0.951   0.095
58.289   -0.951   0.094   0.048   0.134   0.048   0.134   -0.951   0.094
58.594   -0.951   0.093   0.048   0.134   0.048   0.134   -0.951   0.093
58.899   -0.952   0.092   0.048   0.133   0.048   0.133   -0.952   0.092
59.204   -0.952   0.092   0.048   0.133   0.048   0.133   -0.952   0.092
59.509   -0.952   0.091   0.047   0.132   0.047   0.132   -0.952   0.091
59.814   -0.952   0.090   0.047   0.132   0.047   0.132   -0.952   0.090
60.120   -0.953   0.090   0.047   0.131   0.047   0.131   -0.953   0.090
60.425   -0.953   0.089   0.046   0.131   0.046   0.131   -0.953   0.089
60.730   -0.953   0.089   0.046   0.130   0.046   0.130   -0.953   0.089
61.035   -0.954   0.088   0.046   0.130   0.046   0.130   -0.954   0.088
61.340   -0.954   0.087   0.046   0.129   0.046   0.129   -0.954   0.087
61.646   -0.954   0.087   0.045   0.129   0.045   0.129   -0.954   0.087
61.951   -0.954   0.086   0.045   0.129   0.045   0.129   -0.954   0.086
62.256   -0.955   0.086   0.045   0.128   0.045   0.128   -0.955   0.086
62.561   -0.955   0.085   0.045   0.128   0.045   0.128   -0.955   0.085
62.866   -0.955   0.085   0.044   0.128   0.044   0.128   -0.955   0.085
63.171   -0.955   0.084   0.044   0.127   0.044   0.127   -0.955   0.084
63.477   -0.956   0.084   0.044   0.127   0.044   0.127   -0.956   0.084
63.782   -0.956   0.083   0.043   0.127   0.043   0.127   -0.956   0.083
64.087   -0.956   0.083   0.043   0.126   0.043   0.126   -0.956   0.083
64.392   -0.957   0.082   0.043   0.126   0.043   0.126   -0.957   0.082
64.697   -0.957   0.082   0.043   0.126   0.043   0.126   -0.957   0.082
65.002   -0.957   0.081   0.042   0.125   0.042   0.125   -0.957   0.081
65.308   -0.958   0.081   0.042   0.125   0.042   0.125   -0.958   0.081
65.613   -0.958   0.080   0.042   0.125   0.042   0.125   -0.958   0.080
65.918   -0.958   0.080   0.041   0.125   0.041   0.125   -0.958   0.080
66.223   -0.959   0.079   0.041   0.124   0.041   0.124   -0.959   0.079
66.528   -0.959   0.079   0.041   0.124   0.041   0.124   -0.959   0.079
66.833   -0.959   0.078   0.041   0.124   0.041   0.124   -0.959   0.078
67.139   -0.960   0.078   0.040   0.124   0.040   0.124   -0.960   0.078
67.444   -0.960   0.077   0.040   0.123   0.040   0.123   -0.960   0.077
67.749   -0.960   0.077   0.040   0.123   0.040   0.123   -0.960   0.077
68.054   -0.961   0.076   0.039   0.123   0.039   0.123   -0.961   0.076
68.359   -0.961   0.076   0.039   0.123   0.039   0.123   -0.961   0.076
68.665   -0.961   0.076   0.039   0.122   0.039   0.122   -0.961   0.076
68.970   -0.962   0.075   0.038   0.122   0.038   0.122   -0.962   0.075
69.275   -0.962   0.075   0.038   0.122   0.038   0.122   -0.962   0.075
69.580   -0.963   0.074   0.037   0.122   0.037   0.122   -0.963   0.074
69.885   -0.963   0.074   0.037   0.122   0.037   0.122   -0.963   0.074
70.190   -0.964   0.073   0.037   0.121   0.037   0.121   -0.964   0.073
70.496   -0.964   0.073   0.036   0.121   0.036   0.121   -0.964   0.073
70.801   -0.964   0.072   0.036   0.121   0.036   0.121   -0.964   0.072
71.106   -0.965   0.072   0.035   0.121   0.035   0.121   -0.965   0.072
71.411   -0.965   0.071   0.035   0.120   0.035   0.120   -0.965   0.071
71.716   -0.966   0.071   0.035   0.120   0.035   0.120   -0.966   0.071
72.021   -0.966   0.070   0.034   0.120   0.034   0.120   -0.966   0.070
72.327   -0.966   0.070   0.034   0.120   0.034   0.120   -0.966   0.070
72.632   -0.967   0.069   0.033   0.119   0.033   0.119   -0.967   0.069
72.937   -0.967   0.068   0.033   0.119   0.033   0.119   -0.967   0.068
73.242   -0.968   0.068   0.033   0.119   0.033   0.119   -0.968   0.068
73.547   -0.968   0.067   0.032   0.118   0.032   0.118   -0.968   0.067
73.853   -0.969   0.067   0.032   0.118   0.032   0.118   -0.969   0.067
74.158   -0.969   0.066   0.031   0.118   0.031   0.118   -0.969   0.066
74.463   -0.969   0.066   0.031   0.117   0.031   0.117   -0.969   0.066
74.768   -0.970   0.065   0.030   0.117   0.030   0.117   -0.970   0.065
75.073   -0.970   0.064   0.030   0.117   0.030   0.117   -0.970   0.064
75.378   -0.971   0.064   0.030   0.116   0.030   0.116   -0.971   0.064
75.684   -0.971   0.063   0.029   0.116   0.029   0.116   -0.971   0.063
75.989   -0.971   0.062   0.029   0.116   0.029   0.116   -0.971   0.062
76.294   -0.972   0.062   0.028   0.115   0.028   0.115   -0.972   0.062
76.599   -0.972   0.061   0.028   0.115   0.028   0.115   -0.972   0.061
76.904   -0.972   0.060   0.028   0.114   0.028   0.114   -0.972   0.060
77.209   -0.973   0.060   0.027   0.114   0.027   0.114   -0.973   0.060
77.515   -0.973   0.059   0.027   0.114   0.027   0.114   -0.973   0.059
77.820   -0.973   0.058   0.027   0.113   0.027   0.113   -0.973   0.058
78.125   -0.974   0.058   0.026   0.113   0.026   0.113   -0.974   0.058
78.430   -0.974   0.057   0.026   0.112   0.026   0.112   -0.974   0.057
78.735   -0.974   0.056   0.026   0.112   0.026   0.112   -0.974   0.056
79.041   -0.974   0.056   0.025   0.112   0.025   0.112   -0.974   0.056
79.346   -0.975   0.055   0.025   0.111   0.025   0.111   -0.975   0.055
79.651   -0.975   0.054   0.025   0.111   0.025   0.111   -0.975   0.054
79.956   -0.975   0.054   0.024   0.110   0.024   0.110   -0.975   0.054
80.261   -0.975   0.053   0.024   0.110   0.024   0.110   -0.975   0.053
80.566   -0.975   0.052   0.024   0.109   0.024   0.109   -0.975   0.052
80.872   -0.976   0.052   0.024   0.109   0.024   0.109   -0.976   0.052
81.177   -0.976   0.051   0.023   0.109   0.023   0.109   -0.976   0.051
81.482   -0.976   0.050   0.023   0.108   0.023   0.108   -0.976   0.050
81.787   -0.976   0.050   0.023   0.108   0.023   0.108   -0.976   0.050
82.092   -0.976   0.049   0.023   0.107   0.023   0.107   -0.976   0.049
